#Parameters = {Disk_Antenna_1_S11_target_top=-17; Disk_Antenna_1_center_frequency=2.45; Disk_Antenna_1_central_pipe_radius=2.5; Disk_Antenna_1_connector_inner_diameter=1.74; Disk_Antenna_1_connector_outer_diameter=4; Disk_Antenna_1_direction_disks_diameter_1=53.5; Disk_Antenna_1_direction_disks_diameter_2=40.3; Disk_Antenna_1_direction_disks_diameter_3=38.5; Disk_Antenna_1_direction_disks_diameter_4=38.5; Disk_Antenna_1_direction_disks_diameter_5=34.5; Disk_Antenna_1_disk_metallization_thickness=0.5; Disk_Antenna_1_frequency_range=0.15; Disk_Antenna_1_inter_direction_disks_distance_1=30.7; Disk_Antenna_1_inter_direction_disks_distance_2=30.7; Disk_Antenna_1_inter_direction_disks_distance_3=29.4; Disk_Antenna_1_inter_direction_disks_distance_4=29.4; Disk_Antenna_1_line_direction_disk_distance=11.3; Disk_Antenna_1_line_disk_diameter=68.3; Disk_Antenna_1_main_line_disks_distance=9.7; Disk_Antenna_1_main_reflector_diameter=90.2; Disk_Antenna_1_number_direction_disk=5; Disk_Antenna_1_nut_diameter=8; Disk_Antenna_1_nut_height=1; Disk_Antenna_1_nut_thickness=3; Disk_Antenna_1_optimisation_range=0.1; Disk_Antenna_1_port_connection_offset=24.8}
#"Frequency / GHz"	"S1,1 [Re]"	"S1,1 [Im]"	"Ref.Imp. [Re]"	"Ref.Imp. [Im]"
#-------------------------------------------------------------------------
0.50000000000000	-0.21493950838103	0.93453284636323	50.000000000000	0.00000000000000
0.50550000000000	-0.20204249602523	0.93688484450858	50.000000000000	0.00000000000000
0.51100000000000	-0.18910705460669	0.93904946013466	50.000000000000	0.00000000000000
0.51650000000000	-0.17613486088856	0.94102516926954	50.000000000000	0.00000000000000
0.52200000000000	-0.16312761027877	0.94281039476417	50.000000000000	0.00000000000000
0.52750000000000	-0.15008702032618	0.94440350296167	50.000000000000	0.00000000000000
0.53300000000000	-0.13701483455359	0.94580280031580	50.000000000000	0.00000000000000
0.53850000000000	-0.12391282665401	0.94700652996763	50.000000000000	0.00000000000000
0.54400000000000	-0.11078280507836	0.94801286829111	50.000000000000	0.00000000000000
0.54950000000000	-0.097626618044771	0.94881992142146	50.000000000000	0.00000000000000
0.55500000000000	-0.084446159002365	0.94942572178128	50.000000000000	0.00000000000000
0.56050000000000	-0.071243372584044	0.94982822462488	50.000000000000	0.00000000000000
0.56600000000000	-0.058020261085425	0.95002530462162	50.000000000000	0.00000000000000
0.57150000000000	-0.044778891510029	0.95001475250602	50.000000000000	0.00000000000000
0.57700000000000	-0.031521403222055	0.94979427182570	50.000000000000	0.00000000000000
0.58250000000000	-0.018250016251772	0.94936147582300	50.000000000000	0.00000000000000
0.58800000000000	-0.0049670403002388	0.94871388449361	50.000000000000	0.00000000000000
0.59350000000000	0.0083251155074970	0.94784892187098	50.000000000000	0.00000000000000
0.59900000000000	0.021623932069365	0.94676391359427	50.000000000000	0.00000000000000
0.60450000000000	0.034926768900832	0.94545608482583	50.000000000000	0.00000000000000
0.61000000000000	0.048230851821710	0.94392255859431	50.000000000000	0.00000000000000
0.61550000000000	0.061533259680764	0.94216035465102	50.000000000000	0.00000000000000
0.62100000000000	0.074830910062560	0.94016638894020	50.000000000000	0.00000000000000
0.62650000000000	0.088120543920932	0.93793747379717	50.000000000000	0.00000000000000
0.63200000000000	0.10139870908784	0.93547031900543	50.000000000000	0.00000000000000
0.63750000000000	0.11466174260745	0.93276153386183	50.000000000000	0.00000000000000
0.64300000000000	0.12790575185116	0.92980763041620	50.000000000000	0.00000000000000
0.64850000000000	0.14112659437873	0.92660502807812	50.000000000000	0.00000000000000
0.65400000000000	0.15431985651779	0.92315005980224	50.000000000000	0.00000000000000
0.65950000000000	0.16748083065154	0.91943898009491	50.000000000000	0.00000000000000
0.66500000000000	0.18060449121861	0.91546797510754	50.000000000000	0.00000000000000
0.67050000000000	0.19368546945597	0.91123317511832	50.000000000000	0.00000000000000
0.67600000000000	0.20671802694073	0.90673066973102	50.000000000000	0.00000000000000
0.68150000000000	0.21969602802520	0.90195652615570	50.000000000000	0.00000000000000
0.68700000000000	0.23261291130156	0.89690681097045	50.000000000000	0.00000000000000
0.69250000000000	0.24546166028679	0.89157761579708	50.000000000000	0.00000000000000
0.69800000000000	0.25823477358195	0.88596508735778	50.000000000000	0.00000000000000
0.70350000000000	0.27092423483666	0.88006546241144	50.000000000000	0.00000000000000
0.70900000000000	0.28352148293982	0.87387510809471	50.000000000000	0.00000000000000
0.71450000000000	0.29601738296406	0.86739056821351	50.000000000000	0.00000000000000
0.72000000000000	0.30840219851395	0.86060861604168	50.000000000000	0.00000000000000
0.72550000000000	0.32066556627087	0.85352631418026	50.000000000000	0.00000000000000
0.73100000000000	0.33279647368644	0.84614108200952	50.000000000000	0.00000000000000
0.73650000000000	0.34478324096027	0.83845077122152	50.000000000000	0.00000000000000
0.74200000000000	0.35661350863583	0.83045374984529	50.000000000000	0.00000000000000
0.74750000000000	0.36827423236812	0.82214899506304	50.000000000000	0.00000000000000
0.75300000000000	0.37975168665014	0.81353619495568	50.000000000000	0.00000000000000
0.75850000000000	0.39103147952731	0.80461585909826	50.000000000000	0.00000000000000
0.76400000000000	0.40209858057466	0.79538943764235	50.000000000000	0.00000000000000
0.76950000000000	0.41293736464591	0.78585944815942	50.000000000000	0.00000000000000
0.77500000000000	0.42353167411455	0.77602960906982	50.000000000000	0.00000000000000
0.78050000000000	0.43386490249271	0.76590497793360	50.000000000000	0.00000000000000
0.78600000000000	0.44392010241063	0.75549209222825	50.000000000000	0.00000000000000
0.79150000000000	0.45368012093556	0.74479910948050	50.000000000000	0.00000000000000
0.79700000000000	0.46312776507043	0.73383594275848	50.000000000000	0.00000000000000
0.80250000000000	0.47224599995542	0.72261438658118	50.000000000000	0.00000000000000
0.80800000000000	0.48101818175820	0.71114822728501	50.000000000000	0.00000000000000
0.81350000000000	0.48942832643301	0.69945333084480	50.000000000000	0.00000000000000
0.81900000000000	0.49746141441179	0.68754770013023	50.000000000000	0.00000000000000
0.82450000000000	0.50510372982748	0.67545149266688	50.000000000000	0.00000000000000
0.83000000000000	0.51234323103553	0.66318698925650	50.000000000000	0.00000000000000
0.83550000000000	0.51916994699880	0.65077850340762	50.000000000000	0.00000000000000
0.84100000000000	0.52557639155893	0.63825222156801	50.000000000000	0.00000000000000
0.84650000000000	0.53155798481061	0.62563596477004	50.000000000000	0.00000000000000
0.85200000000000	0.53711346784091	0.61295886363135	50.000000000000	0.00000000000000
0.85750000000000	0.54224529416443	0.60025094082180	50.000000000000	0.00000000000000
0.86300000000000	0.54695997851009	0.58754259817696	50.000000000000	0.00000000000000
0.86850000000000	0.55126838146318	0.57486400963825	50.000000000000	0.00000000000000
0.87400000000000	0.55518590714803	0.56224442605252	50.000000000000	0.00000000000000
0.87950000000000	0.55873259095963	0.54971140340977	50.000000000000	0.00000000000000
0.88500000000000	0.56193305560257	0.53728997204316	50.000000000000	0.00000000000000
0.89050000000000	0.56481631657654	0.52500177027960	50.000000000000	0.00000000000000
0.89600000000000	0.56741542285816	0.51286417151120	50.000000000000	0.00000000000000
0.90150000000000	0.56976692479915	0.50088943812542	50.000000000000	0.00000000000000
0.90700000000000	0.57191016894104	0.48908393863363	50.000000000000	0.00000000000000
0.91250000000000	0.57388642809361	0.47744746520099	50.000000000000	0.00000000000000
0.91800000000000	0.57573788402174	0.46597268727022	50.000000000000	0.00000000000000
0.92350000000000	0.57750648869186	0.45464477295681	50.000000000000	0.00000000000000
0.92900000000000	0.57923273746597	0.44344120350604	50.000000000000	0.00000000000000
0.93450000000000	0.58095439315954	0.43233179773033	50.000000000000	0.00000000000000
0.94000000000000	0.58270520291371	0.42127895363309	50.000000000000	0.00000000000000
0.94550000000000	0.58451365002524	0.41023810419520	50.000000000000	0.00000000000000
0.95100000000000	0.58640178015881	0.39915837446202	50.000000000000	0.00000000000000
0.95650000000000	0.58838413599638	0.38798341851905	50.000000000000	0.00000000000000
0.96200000000000	0.59046682687948	0.37665240844653	50.000000000000	0.00000000000000
0.96750000000000	0.59264675112640	0.36510114344250	50.000000000000	0.00000000000000
0.97300000000000	0.59491097933467	0.35326324626984	50.000000000000	0.00000000000000
0.97850000000000	0.59723629799740	0.34107141599832	50.000000000000	0.00000000000000
0.98400000000000	0.59958890499802	0.32845871038073	50.000000000000	0.00000000000000
0.98950000000000	0.60192424266667	0.31535983762785	50.000000000000	0.00000000000000
0.99500000000000	0.60418695055055	0.30171244518051	50.000000000000	0.00000000000000
1.0005000000000	0.60631091913780	0.28745840161581	50.000000000000	0.00000000000000
1.0060000000000	0.60821942754791	0.27254507636407	50.000000000000	0.00000000000000
1.0115000000000	0.60982535257692	0.25692662980439	50.000000000000	0.00000000000000
1.0170000000000	0.61103144327605	0.24056533296888	50.000000000000	0.00000000000000
1.0225000000000	0.61173066419172	0.22343294101419	50.000000000000	0.00000000000000
1.0280000000000	0.61180662122397	0.20551214735218	50.000000000000	0.00000000000000
1.0335000000000	0.61113409646823	0.18679814541498	50.000000000000	0.00000000000000
1.0390000000000	0.60957973206139	0.16730032197564	50.000000000000	0.00000000000000
1.0445000000000	0.60700291755216	0.14704409918184	50.000000000000	0.00000000000000
1.0500000000000	0.60325695010669	0.12607293131785	50.000000000000	0.00000000000000
1.0555000000000	0.59819055113987	0.10445044601566	50.000000000000	0.00000000000000
1.0610000000000	0.59164983555647	0.082262697367927	50.000000000000	0.00000000000000
1.0665000000000	0.58348083900222	0.059620469393273	50.000000000000	0.00000000000000
1.0720000000000	0.57353271203110	0.036661532064652	50.000000000000	0.00000000000000
1.0775000000000	0.56166168482608	0.013552708692459	50.000000000000	0.00000000000000
1.0830000000000	0.54773588828453	-0.0095084361181031	50.000000000000	0.00000000000000
1.0885000000000	0.53164108257557	-0.032292531923787	50.000000000000	0.00000000000000
1.0940000000000	0.51328728828654	-0.054538257575646	50.000000000000	0.00000000000000
1.0995000000000	0.49261623430620	-0.075953456484381	50.000000000000	0.00000000000000
1.1050000000000	0.46960942889131	-0.096217878613000	50.000000000000	0.00000000000000
1.1105000000000	0.44429652774944	-0.11498791128480	50.000000000000	0.00000000000000
1.1160000000000	0.41676352269089	-0.13190361163331	50.000000000000	0.00000000000000
1.1215000000000	0.38716012081745	-0.14659824607336	50.000000000000	0.00000000000000
1.1270000000000	0.35570554967226	-0.15871036725564	50.000000000000	0.00000000000000
1.1325000000000	0.32269193778444	-0.16789821592960	50.000000000000	0.00000000000000
1.1380000000000	0.28848441595644	-0.17385593664594	50.000000000000	0.00000000000000
1.1435000000000	0.25351719334016	-0.17633077168655	50.000000000000	0.00000000000000
1.1490000000000	0.21828510341949	-0.17514009341721	50.000000000000	0.00000000000000
1.1545000000000	0.18333048711859	-0.17018691010979	50.000000000000	0.00000000000000
1.1600000000000	0.14922575367606	-0.16147239472886	50.000000000000	0.00000000000000
1.1655000000000	0.11655247492464	-0.14910408768746	50.000000000000	0.00000000000000
1.1710000000000	0.085878342337303	-0.13329873161156	50.000000000000	0.00000000000000
1.1765000000000	0.057733658515589	-0.11437918663139	50.000000000000	0.00000000000000
1.1820000000000	0.032589169914929	-0.092765484054358	50.000000000000	0.00000000000000
1.1875000000000	0.010836935160701	-0.068960707743627	50.000000000000	0.00000000000000
1.1930000000000	-0.0072244283907493	-0.043532938318451	50.000000000000	0.00000000000000
1.1985000000000	-0.021399311079666	-0.017094862230293	50.000000000000	0.00000000000000
1.2040000000000	-0.031599305525961	0.0097172206278487	50.000000000000	0.00000000000000
1.2095000000000	-0.037842454326268	0.036263369396081	50.000000000000	0.00000000000000
1.2150000000000	-0.040248479804171	0.061917652831943	50.000000000000	0.00000000000000
1.2205000000000	-0.039031262083435	0.086082634985663	50.000000000000	0.00000000000000
1.2260000000000	-0.034489979709332	0.10820037337621	50.000000000000	0.00000000000000
1.2315000000000	-0.027000296829386	0.12776011975087	50.000000000000	0.00000000000000
1.2370000000000	-0.017006805216996	0.14430337103646	50.000000000000	0.00000000000000
1.2425000000000	-0.0050176462892597	0.15742729920619	50.000000000000	0.00000000000000
1.2480000000000	0.0083981238251747	0.16678789431113	50.000000000000	0.00000000000000
1.2535000000000	0.022610296805546	0.17210439712408	50.000000000000	0.00000000000000
1.2590000000000	0.036924798131092	0.17316678483717	50.000000000000	0.00000000000000
1.2645000000000	0.050579556375122	0.16984818906406	50.000000000000	0.00000000000000
1.2700000000000	0.062740883174273	0.16212410531224	50.000000000000	0.00000000000000
1.2755000000000	0.072503419774314	0.15009995516096	50.000000000000	0.00000000000000
1.2810000000000	0.078898092929853	0.13404774137249	50.000000000000	0.00000000000000
1.2865000000000	0.080914012107479	0.11445083978760	50.000000000000	0.00000000000000
1.2920000000000	0.077541383123601	0.092053002471805	50.000000000000	0.00000000000000
1.2975000000000	0.067842418608482	0.067903158682348	50.000000000000	0.00000000000000
1.3030000000000	0.051054510874091	0.043381905620182	50.000000000000	0.00000000000000
1.3085000000000	0.026723025290159	0.020190141963285	50.000000000000	0.00000000000000
1.3140000000000	-0.0051508388649941	0.00027821787677745	50.000000000000	0.00000000000000
1.3195000000000	-0.043976972530225	-0.014300328722828	50.000000000000	0.00000000000000
1.3250000000000	-0.088500959056589	-0.021609260441441	50.000000000000	0.00000000000000
1.3305000000000	-0.13683076590934	-0.020095665583735	50.000000000000	0.00000000000000
1.3360000000000	-0.18659157169653	-0.0088441927495534	50.000000000000	0.00000000000000
1.3415000000000	-0.23519685525705	0.012251659602139	50.000000000000	0.00000000000000
1.3470000000000	-0.28018045187486	0.042457878752505	50.000000000000	0.00000000000000
1.3525000000000	-0.31950788963818	0.080322770345935	50.000000000000	0.00000000000000
1.3580000000000	-0.35179194027290	0.12391883445051	50.000000000000	0.00000000000000
1.3635000000000	-0.37637370620582	0.17113468114373	50.000000000000	0.00000000000000
1.3690000000000	-0.39327638277436	0.21994546168152	50.000000000000	0.00000000000000
1.3745000000000	-0.40307176030419	0.26861400948436	50.000000000000	0.00000000000000
1.3800000000000	-0.40670910766933	0.31580796649677	50.000000000000	0.00000000000000
1.3855000000000	-0.40534588510108	0.36064463322557	50.000000000000	0.00000000000000
1.3910000000000	-0.40020020992699	0.40268765143745	50.000000000000	0.00000000000000
1.3965000000000	-0.39242569282982	0.44191819045705	50.000000000000	0.00000000000000
1.4020000000000	-0.38299608925201	0.47869140497369	50.000000000000	0.00000000000000
1.4075000000000	-0.37258460357514	0.51366990318716	50.000000000000	0.00000000000000
1.4130000000000	-0.36143694468174	0.54770520956761	50.000000000000	0.00000000000000
1.4185000000000	-0.34927437725409	0.58163071883734	50.000000000000	0.00000000000000
1.4240000000000	-0.33531231380958	0.61596411258134	50.000000000000	0.00000000000000
1.4295000000000	-0.31848932757809	0.65061119211444	50.000000000000	0.00000000000000
1.4350000000000	-0.29789844280811	0.68475889833488	50.000000000000	0.00000000000000
1.4405000000000	-0.27322396554457	0.71710154133303	50.000000000000	0.00000000000000
1.4460000000000	-0.24491114264230	0.74631488035889	50.000000000000	0.00000000000000
1.4515000000000	-0.21397680954789	0.77149168789662	50.000000000000	0.00000000000000
1.4570000000000	-0.18163226316465	0.79231241744799	50.000000000000	0.00000000000000
1.4625000000000	-0.14895965518575	0.80895435652576	50.000000000000	0.00000000000000
1.4680000000000	-0.11675631483265	0.82188666383631	50.000000000000	0.00000000000000
1.4735000000000	-0.085523163488861	0.83168220821266	50.000000000000	0.00000000000000
1.4790000000000	-0.055524677961540	0.83889780113026	50.000000000000	0.00000000000000
1.4845000000000	-0.026863737570868	0.84401822225135	50.000000000000	0.00000000000000
1.4900000000000	0.00045545526222734	0.84744116641848	50.000000000000	0.00000000000000
1.4955000000000	0.026482941026147	0.84948263313766	50.000000000000	0.00000000000000
1.5010000000000	0.051294726349105	0.85038990647175	50.000000000000	0.00000000000000
1.5065000000000	0.074976102877029	0.85035560009028	50.000000000000	0.00000000000000
1.5120000000000	0.097612469240230	0.84953007741305	50.000000000000	0.00000000000000
1.5175000000000	0.11928469771807	0.84803149988223	50.000000000000	0.00000000000000
1.5230000000000	0.14006711840603	0.84595359546234	50.000000000000	0.00000000000000
1.5285000000000	0.16002693999004	0.84337152425694	50.000000000000	0.00000000000000
1.5340000000000	0.17922441315097	0.84034625790997	50.000000000000	0.00000000000000
1.5395000000000	0.19771334241882	0.83692783775526	50.000000000000	0.00000000000000
1.5450000000000	0.21554173019596	0.83315780222130	50.000000000000	0.00000000000000
1.5505000000000	0.23275243942801	0.82907100389710	50.000000000000	0.00000000000000
1.5560000000000	0.24938381936871	0.82469697925418	50.000000000000	0.00000000000000
1.5615000000000	0.26547027075420	0.82006098996957	50.000000000000	0.00000000000000
1.5670000000000	0.28104274363188	0.81518482213528	50.000000000000	0.00000000000000
1.5725000000000	0.29612916961104	0.81008740587192	50.000000000000	0.00000000000000
1.5780000000000	0.31075483418666	0.80478530073077	50.000000000000	0.00000000000000
1.5835000000000	0.32494269618123	0.79929307996516	50.000000000000	0.00000000000000
1.5890000000000	0.33871366146327	0.79362363791908	50.000000000000	0.00000000000000
1.5945000000000	0.35208681760481	0.78778843842515	50.000000000000	0.00000000000000
1.6000000000000	0.36507963539695	0.78179771751210	50.000000000000	0.00000000000000
1.6055000000000	0.37770814234312	0.77566065038740	50.000000000000	0.00000000000000
1.6110000000000	0.38998707248654	0.76938549022399	50.000000000000	0.00000000000000
1.6165000000000	0.40192999624344	0.76297968448788	50.000000000000	0.00000000000000
1.6220000000000	0.41354943331822	0.75644997321543	50.000000000000	0.00000000000000
1.6275000000000	0.42485695127127	0.74980247265834	50.000000000000	0.00000000000000
1.6330000000000	0.43586325188501	0.74304274696836	50.000000000000	0.00000000000000
1.6385000000000	0.44657824712017	0.73617587002918	50.000000000000	0.00000000000000
1.6440000000000	0.45701112616060	0.72920647911076	50.000000000000	0.00000000000000
1.6495000000000	0.46717041480269	0.72213882168900	50.000000000000	0.00000000000000
1.6550000000000	0.47706402824420	0.71497679651547	50.000000000000	0.00000000000000
1.6605000000000	0.48669931816202	0.70772398982030	50.000000000000	0.00000000000000
1.6660000000000	0.49608311483047	0.70038370737170	50.000000000000	0.00000000000000
1.6715000000000	0.50522176491818	0.69295900298985	50.000000000000	0.00000000000000
1.6770000000000	0.51412116550645	0.68545270401126	50.000000000000	0.00000000000000
1.6825000000000	0.52278679479327	0.67786743411864	50.000000000000	0.00000000000000
1.6880000000000	0.53122373988080	0.67020563388505	50.000000000000	0.00000000000000
1.6935000000000	0.53943672198892	0.66246957932730	50.000000000000	0.00000000000000
1.6990000000000	0.54743011939049	0.65466139871916	50.000000000000	0.00000000000000
1.7045000000000	0.55520798832479	0.64678308787824	50.000000000000	0.00000000000000
1.7100000000000	0.56277408211194	0.63883652411007	50.000000000000	0.00000000000000
1.7155000000000	0.57013186866294	0.63082347896736	50.000000000000	0.00000000000000
