#Parameters = {Disk_Antenna_1_S11_target_top=-15; Disk_Antenna_1_center_frequency=2.4; Disk_Antenna_1_central_pipe_radius=2.5; Disk_Antenna_1_connector_inner_diameter=1.74; Disk_Antenna_1_connector_outer_diameter=4; Disk_Antenna_1_direction_disks_diameter_1=54; Disk_Antenna_1_direction_disks_diameter_2=38; Disk_Antenna_1_direction_disks_diameter_3=37; Disk_Antenna_1_direction_disks_diameter_4=37; Disk_Antenna_1_direction_disks_diameter_5=37; Disk_Antenna_1_disk_metallization_thickness=0.5; Disk_Antenna_1_frequency_range=200; Disk_Antenna_1_inter_direction_disks_distance_1=32; Disk_Antenna_1_inter_direction_disks_distance_2=29; Disk_Antenna_1_inter_direction_disks_distance_3=29; Disk_Antenna_1_inter_direction_disks_distance_4=29; Disk_Antenna_1_line_direction_disk_distance=12; Disk_Antenna_1_line_disk_diameter=68; Disk_Antenna_1_main_line_disks_distance=11; Disk_Antenna_1_main_reflector_diameter=90; Disk_Antenna_1_number_direction_disk=5; Disk_Antenna_1_nut_diameter=8; Disk_Antenna_1_nut_height=1; Disk_Antenna_1_nut_thickness=3; Disk_Antenna_1_port_connection_offset=24}
#"Frequency / GHz"	"S1,1 [Re]"	"S1,1 [Im]"	"Ref.Imp. [Re]"	"Ref.Imp. [Im]"
#-------------------------------------------------------------------------
0.50000000000000	-0.084714119225122	0.94683465817636	50.000000000000	0.00000000000000
0.50550000000000	-0.071175730159322	0.94739364089485	50.000000000000	0.00000000000000
0.51100000000000	-0.057625096125769	0.94773694252767	50.000000000000	0.00000000000000
0.51650000000000	-0.044065039566546	0.94786332069817	50.000000000000	0.00000000000000
0.52200000000000	-0.030498400706621	0.94777150052878	50.000000000000	0.00000000000000
0.52750000000000	-0.016928041684799	0.94746017039979	50.000000000000	0.00000000000000
0.53300000000000	-0.0033568511654366	0.94692797767967	50.000000000000	0.00000000000000
0.53850000000000	0.010212250535064	0.94617352444474	50.000000000000	0.00000000000000
0.54400000000000	0.023776305770458	0.94519536320883	50.000000000000	0.00000000000000
0.54950000000000	0.037332313296347	0.94399199268717	50.000000000000	0.00000000000000
0.55500000000000	0.050877221369709	0.94256185362265	50.000000000000	0.00000000000000
0.56050000000000	0.064407920171473	0.94090332470729	50.000000000000	0.00000000000000
0.56600000000000	0.077921233504821	0.93901471863712	50.000000000000	0.00000000000000
0.57150000000000	0.091413909718815	0.93689427834470	50.000000000000	0.00000000000000
0.57700000000000	0.10488261180425	0.93454017346058	50.000000000000	0.00000000000000
0.58250000000000	0.11832390660571	0.93195049706310	50.000000000000	0.00000000000000
0.58800000000000	0.13173425309147	0.92912326278479	50.000000000000	0.00000000000000
0.59350000000000	0.14510998962030	0.92605640235455	50.000000000000	0.00000000000000
0.59900000000000	0.15844732014272	0.92274776366606	50.000000000000	0.00000000000000
0.60450000000000	0.17174229927248	0.91919510947691	50.000000000000	0.00000000000000
0.61000000000000	0.18499081616403	0.91539611685761	50.000000000000	0.00000000000000
0.61550000000000	0.19818857713181	0.91134837752726	50.000000000000	0.00000000000000
0.62100000000000	0.21133108694940	0.90704939923163	50.000000000000	0.00000000000000
0.62650000000000	0.22441362876978	0.90249660834112	50.000000000000	0.00000000000000
0.63200000000000	0.23743124261390	0.89768735387025	50.000000000000	0.00000000000000
0.63750000000000	0.25037870238301	0.89261891314713	50.000000000000	0.00000000000000
0.64300000000000	0.26325049136196	0.88728849939104	50.000000000000	0.00000000000000
0.64850000000000	0.27604077619624	0.88169327148856	50.000000000000	0.00000000000000
0.65400000000000	0.28874337934658	0.87583034629489	50.000000000000	0.00000000000000
0.65950000000000	0.30135175005129	0.86969681382473	50.000000000000	0.00000000000000
0.66500000000000	0.31385893386075	0.86328975573908	50.000000000000	0.00000000000000
0.67050000000000	0.32625754085069	0.85660626757756	50.000000000000	0.00000000000000
0.67600000000000	0.33853971267387	0.84964348523165	50.000000000000	0.00000000000000
0.68150000000000	0.35069708867428	0.84239861620088	50.000000000000	0.00000000000000
0.68700000000000	0.36272077136666	0.83486897622038	50.000000000000	0.00000000000000
0.69250000000000	0.37460129167905	0.82705203189277	50.000000000000	0.00000000000000
0.69800000000000	0.38632857446919	0.81894544999779	50.000000000000	0.00000000000000
0.70350000000000	0.39789190495995	0.81054715418627	50.000000000000	0.00000000000000
0.70900000000000	0.40927989689631	0.80185538978756	50.000000000000	0.00000000000000
0.71450000000000	0.42048046340973	0.79286879746533	50.000000000000	0.00000000000000
0.72000000000000	0.43148079178635	0.78358649644157	50.000000000000	0.00000000000000
0.72550000000000	0.44226732357522	0.77400817796281	50.000000000000	0.00000000000000
0.73100000000000	0.45282574174151	0.76413420959867	50.000000000000	0.00000000000000
0.73650000000000	0.46314096686716	0.75396575082943	50.000000000000	0.00000000000000
0.74200000000000	0.47319716472300	0.74350488018371	50.000000000000	0.00000000000000
0.74750000000000	0.48297776787849	0.73275473391505	50.000000000000	0.00000000000000
0.75300000000000	0.49246551436493	0.72171965584261	50.000000000000	0.00000000000000
0.75850000000000	0.50164250675474	0.71040535750808	50.000000000000	0.00000000000000
0.76400000000000	0.51049029533923	0.69881908720228	50.000000000000	0.00000000000000
0.76950000000000	0.51898998935582	0.68696980567487	50.000000000000	0.00000000000000
0.77500000000000	0.52712240039559	0.67486836544585	50.000000000000	0.00000000000000
0.78050000000000	0.53486822217006	0.66252768958076	50.000000000000	0.00000000000000
0.78600000000000	0.54220825067719	0.64996294457385	50.000000000000	0.00000000000000
0.79150000000000	0.54912364841919	0.63719170061816	50.000000000000	0.00000000000000
0.79700000000000	0.55559625561686	0.62423407106025	50.000000000000	0.00000000000000
0.80250000000000	0.56160895026336	0.61111282129216	50.000000000000	0.00000000000000
0.80800000000000	0.56714605729081	0.59785343580672	50.000000000000	0.00000000000000
0.81350000000000	0.57219380502120	0.58448413074553	50.000000000000	0.00000000000000
0.81900000000000	0.57674082439612	0.57103579815139	50.000000000000	0.00000000000000
0.82450000000000	0.58077868321587	0.55754186747896	50.000000000000	0.00000000000000
0.83000000000000	0.58430244380975	0.54403806993221	50.000000000000	0.00000000000000
0.83550000000000	0.58731122831080	0.53056209211308	50.000000000000	0.00000000000000
0.84100000000000	0.58980877121119	0.51715310751228	50.000000000000	0.00000000000000
0.84650000000000	0.59180393441156	0.50385117774974	50.000000000000	0.00000000000000
0.85200000000000	0.59331115592912	0.49069652031416	50.000000000000	0.00000000000000
0.85750000000000	0.59435080026189	0.47772864588846	50.000000000000	0.00000000000000
0.86300000000000	0.59494937664190	0.46498537606063	50.000000000000	0.00000000000000
0.86850000000000	0.59513959158497	0.45250176100426	50.000000000000	0.00000000000000
0.87400000000000	0.59496020473304	0.44030892605925	50.000000000000	0.00000000000000
0.87950000000000	0.59445566232753	0.42843288533914	50.000000000000	0.00000000000000
0.88500000000000	0.59367549086026	0.41689336866166	50.000000000000	0.00000000000000
0.89050000000000	0.59267344433504	0.40570271427903	50.000000000000	0.00000000000000
0.89600000000000	0.59150641159936	0.39486488313613	50.000000000000	0.00000000000000
0.90150000000000	0.59023310448044	0.38437464993000	50.000000000000	0.00000000000000
0.90700000000000	0.58891256179304	0.37421702160871	50.000000000000	0.00000000000000
0.91250000000000	0.58760251730537	0.36436692508225	50.000000000000	0.00000000000000
0.91800000000000	0.58635769006205	0.35478919326779	50.000000000000	0.00000000000000
0.92350000000000	0.58522806185934	0.34543886309738	50.000000000000	0.00000000000000
0.92900000000000	0.58425720829662	0.33626178213400	50.000000000000	0.00000000000000
0.93450000000000	0.58348074635696	0.32719550358206	50.000000000000	0.00000000000000
0.94000000000000	0.58292495314366	0.31817043440313	50.000000000000	0.00000000000000
0.94550000000000	0.58260559803543	0.30911118943889	50.000000000000	0.00000000000000
0.95100000000000	0.58252701539201	0.29993809701293	50.000000000000	0.00000000000000
0.95650000000000	0.58268142859892	0.29056879903110	50.000000000000	0.00000000000000
0.96200000000000	0.58304852031204	0.28091989116636	50.000000000000	0.00000000000000
0.96750000000000	0.58359522974030	0.27090855581436	50.000000000000	0.00000000000000
0.97300000000000	0.58427574688542	0.26045415124094	50.000000000000	0.00000000000000
0.97850000000000	0.58503166663975	0.24947973355568	50.000000000000	0.00000000000000
0.98400000000000	0.58579226291003	0.23791350258832	50.000000000000	0.00000000000000
0.98950000000000	0.58647484448964	0.22569017722568	50.000000000000	0.00000000000000
0.99500000000000	0.58698515996402	0.21275231925839	50.000000000000	0.00000000000000
1.0005000000000	0.58721782804768	0.19905163647426	50.000000000000	0.00000000000000
1.0060000000000	0.58705678190462	0.18455030501561	50.000000000000	0.00000000000000
1.0115000000000	0.58637573071349	0.16922235744694	50.000000000000	0.00000000000000
1.0170000000000	0.58503865861433	0.15305518618897	50.000000000000	0.00000000000000
1.0225000000000	0.58290039991956	0.13605121156516	50.000000000000	0.00000000000000
1.0280000000000	0.57980734985790	0.11822975914139	50.000000000000	0.00000000000000
1.0335000000000	0.57559839188106	0.099629181543498	50.000000000000	0.00000000000000
1.0390000000000	0.57010614525707	0.080309244426982	50.000000000000	0.00000000000000
1.0445000000000	0.56315865947503	0.060353773331573	50.000000000000	0.00000000000000
1.0500000000000	0.55458170342278	0.039873526077683	50.000000000000	0.00000000000000
1.0555000000000	0.54420181494800	0.019009212329561	50.000000000000	0.00000000000000
1.0610000000000	0.53185028657408	-0.0020654736543269	50.000000000000	0.00000000000000
1.0665000000000	0.51736826054663	-0.023141010098990	50.000000000000	0.00000000000000
1.0720000000000	0.50061308406347	-0.043969679377947	50.000000000000	0.00000000000000
1.0775000000000	0.48146602498797	-0.064264050055247	50.000000000000	0.00000000000000
1.0830000000000	0.45984136025552	-0.083696777938728	50.000000000000	0.00000000000000
1.0885000000000	0.43569671499528	-0.10190227653757	50.000000000000	0.00000000000000
1.0940000000000	0.40904434491905	-0.11848085868252	50.000000000000	0.00000000000000
1.0995000000000	0.37996281973436	-0.13300594642680	50.000000000000	0.00000000000000
1.1050000000000	0.34860829491805	-0.14503485588956	50.000000000000	0.00000000000000
1.1105000000000	0.31522428300794	-0.15412345847518	50.000000000000	0.00000000000000
1.1160000000000	0.28014860214269	-0.15984468030879	50.000000000000	0.00000000000000
1.1215000000000	0.24381605404226	-0.16181032894911	50.000000000000	0.00000000000000
1.1270000000000	0.20675543870817	-0.15969516432683	50.000000000000	0.00000000000000
1.1325000000000	0.16957981184970	-0.15326153385754	50.000000000000	0.00000000000000
1.1380000000000	0.13296946290092	-0.14238238290109	50.000000000000	0.00000000000000
1.1435000000000	0.097647908272247	-0.12706016612793	50.000000000000	0.00000000000000
1.1490000000000	0.064352155723887	-0.10743924713822	50.000000000000	0.00000000000000
1.1545000000000	0.033799434534522	-0.083809854519257	50.000000000000	0.00000000000000
1.1600000000000	0.0066533009313394	-0.056602544267031	50.000000000000	0.00000000000000
1.1655000000000	-0.016507663799646	-0.026373277793983	50.000000000000	0.00000000000000
1.1710000000000	-0.035215549807357	0.0062195482060900	50.000000000000	0.00000000000000
1.1765000000000	-0.049130902750134	0.040443733144318	50.000000000000	0.00000000000000
1.1820000000000	-0.058051362116794	0.075524513655395	50.000000000000	0.00000000000000
1.1875000000000	-0.061911144822656	0.11067519922432	50.000000000000	0.00000000000000
1.1930000000000	-0.060772502695577	0.14512431669177	50.000000000000	0.00000000000000
1.1985000000000	-0.054811142135832	0.17813708389491	50.000000000000	0.00000000000000
1.2040000000000	-0.044298075800879	0.20902993408360	50.000000000000	0.00000000000000
1.2095000000000	-0.029580481172397	0.23717772268680	50.000000000000	0.00000000000000
1.2150000000000	-0.011063952530295	0.26201402194070	50.000000000000	0.00000000000000
1.2205000000000	0.010801821031176	0.28302547138765	50.000000000000	0.00000000000000
1.2260000000000	0.035532304324620	0.29974150074719	50.000000000000	0.00000000000000
1.2315000000000	0.062610949473710	0.31172093492332	50.000000000000	0.00000000000000
1.2370000000000	0.091484423033738	0.31853713326030	50.000000000000	0.00000000000000
1.2425000000000	0.12154900419020	0.31976354588237	50.000000000000	0.00000000000000
1.2480000000000	0.15212674191330	0.31496206328558	50.000000000000	0.00000000000000
1.2535000000000	0.18242971411119	0.30367751047817	50.000000000000	0.00000000000000
1.2590000000000	0.21151067023242	0.28544336873820	50.000000000000	0.00000000000000
1.2645000000000	0.23819895421181	0.25980661107397	50.000000000000	0.00000000000000
1.2700000000000	0.26102285236414	0.22638365682927	50.000000000000	0.00000000000000
1.2755000000000	0.27812509636817	0.18496471410181	50.000000000000	0.00000000000000
1.2810000000000	0.28718985910319	0.13568874000694	50.000000000000	0.00000000000000
1.2865000000000	0.28542049129469	0.079311473415093	50.000000000000	0.00000000000000
1.2920000000000	0.26963891520086	0.017574483876638	50.000000000000	0.00000000000000
1.2975000000000	0.23661264952972	-0.046363179064493	50.000000000000	0.00000000000000
1.3030000000000	0.18372456978901	-0.10756524689790	50.000000000000	0.00000000000000
1.3085000000000	0.11002162435288	-0.15930201154279	50.000000000000	0.00000000000000
1.3140000000000	0.017442423742952	-0.19373934074227	50.000000000000	0.00000000000000
1.3195000000000	-0.088336788360804	-0.20354717347446	50.000000000000	0.00000000000000
1.3250000000000	-0.19820090456258	-0.18410979981961	50.000000000000	0.00000000000000
1.3305000000000	-0.30142002305140	-0.13534204479545	50.000000000000	0.00000000000000
1.3360000000000	-0.38840393099652	-0.061986812653033	50.000000000000	0.00000000000000
1.3415000000000	-0.45302435723267	0.027892270289226	50.000000000000	0.00000000000000
1.3470000000000	-0.49342206049020	0.12534963959803	50.000000000000	0.00000000000000
1.3525000000000	-0.51127941619025	0.22265890264382	50.000000000000	0.00000000000000
1.3580000000000	-0.51034636070431	0.31436397281445	50.000000000000	0.00000000000000
1.3635000000000	-0.49503981251947	0.39734214038171	50.000000000000	0.00000000000000
1.3690000000000	-0.46951731834618	0.47032072209605	50.000000000000	0.00000000000000
1.3745000000000	-0.43724033289209	0.53325744574717	50.000000000000	0.00000000000000
1.3800000000000	-0.40087379785237	0.58680905998686	50.000000000000	0.00000000000000
1.3855000000000	-0.36236015643665	0.63195605553568	50.000000000000	0.00000000000000
1.3910000000000	-0.32305689046854	0.66977037929694	50.000000000000	0.00000000000000
1.3965000000000	-0.28387837778115	0.70128756850139	50.000000000000	0.00000000000000
1.4020000000000	-0.24541741869607	0.72744596089541	50.000000000000	0.00000000000000
1.4075000000000	-0.20804026929090	0.74906515395101	50.000000000000	0.00000000000000
1.4130000000000	-0.17195716511430	0.76684550114887	50.000000000000	0.00000000000000
1.4185000000000	-0.13727298016893	0.78137768016763	50.000000000000	0.00000000000000
1.4240000000000	-0.10402284533156	0.79315615515301	50.000000000000	0.00000000000000
1.4295000000000	-0.072196818450195	0.80259328022457	50.000000000000	0.00000000000000
1.4350000000000	-0.041756775021461	0.81003248136611	50.000000000000	0.00000000000000
1.4405000000000	-0.012647855308540	0.81575988360240	50.000000000000	0.00000000000000
1.4460000000000	0.015193859342547	0.82001423478964	50.000000000000	0.00000000000000
1.4515000000000	0.041836263956846	0.82299521092545	50.000000000000	0.00000000000000
1.4570000000000	0.067347921854671	0.82487028541592	50.000000000000	0.00000000000000
1.4625000000000	0.091795964549422	0.82578037177134	50.000000000000	0.00000000000000
1.4680000000000	0.11524480954428	0.82584444209968	50.000000000000	0.00000000000000
1.4735000000000	0.13775542816035	0.82516330208947	50.000000000000	0.00000000000000
1.4790000000000	0.15938497982810	0.82382267703441	50.000000000000	0.00000000000000
1.4845000000000	0.18018668729873	0.82189573777264	50.000000000000	0.00000000000000
1.4900000000000	0.20020986713377	0.81944517233246	50.000000000000	0.00000000000000
1.4955000000000	0.21950005726163	0.81652488929393	50.000000000000	0.00000000000000
1.5010000000000	0.23809920224423	0.81318142238820	50.000000000000	0.00000000000000
1.5065000000000	0.25604586985143	0.80945509235161	50.000000000000	0.00000000000000
1.5120000000000	0.27337548143414	0.80538097110827	50.000000000000	0.00000000000000
1.5175000000000	0.29012054468062	0.80098968454702	50.000000000000	0.00000000000000
1.5230000000000	0.30631088150219	0.79630808309703	50.000000000000	0.00000000000000
1.5285000000000	0.32197384662291	0.79135980365682	50.000000000000	0.00000000000000
1.5340000000000	0.33713453435473	0.78616574191411	50.000000000000	0.00000000000000
1.5395000000000	0.35181597231124	0.78074445048157	50.000000000000	0.00000000000000
1.5450000000000	0.36603930164619	0.77511247538170	50.000000000000	0.00000000000000
1.5505000000000	0.37982394393599	0.76928464109636	50.000000000000	0.00000000000000
1.5560000000000	0.39318775515267	0.76327429253486	50.000000000000	0.00000000000000
1.5615000000000	0.40614716736194	0.75709350077729	50.000000000000	0.00000000000000
1.5670000000000	0.41871731887647	0.75075323824212	50.000000000000	0.00000000000000
1.5725000000000	0.43091217362880	0.74426352795132	50.000000000000	0.00000000000000
1.5780000000000	0.44274463052358	0.73763357077602	50.000000000000	0.00000000000000
1.5835000000000	0.45422662350065	0.73087185390342	50.000000000000	0.00000000000000
1.5890000000000	0.46536921299893	0.72398624324323	50.000000000000	0.00000000000000
1.5945000000000	0.47618266946314	0.71698406206483	50.000000000000	0.00000000000000
1.6000000000000	0.48667654948570	0.70987215780665	50.000000000000	0.00000000000000
1.6055000000000	0.49685976512801	0.70265695871148	50.000000000000	0.00000000000000
1.6110000000000	0.50674064691970	0.69534452170405	50.000000000000	0.00000000000000
1.6165000000000	0.51632700099313	0.68794057273008	50.000000000000	0.00000000000000
1.6220000000000	0.52562616077339	0.68045054061159	50.000000000000	0.00000000000000
1.6275000000000	0.53464503361130	0.67287958533541	50.000000000000	0.00000000000000
1.6330000000000	0.54339014271875	0.66523262157506	50.000000000000	0.00000000000000
1.6385000000000	0.55186766474050	0.65751433814697	50.000000000000	0.00000000000000
1.6440000000000	0.56008346327611	0.64972921401664	50.000000000000	0.00000000000000
1.6495000000000	0.56804311864652	0.64188153139655	50.000000000000	0.00000000000000
1.6550000000000	0.57575195418436	0.63397538641305	50.000000000000	0.00000000000000
1.6605000000000	0.58321505931273	0.62601469776271	50.000000000000	0.00000000000000
1.6660000000000	0.59043730966474	0.61800321372793	50.000000000000	0.00000000000000
1.6715000000000	0.59742338448450	0.60994451787683	50.000000000000	0.00000000000000
1.6770000000000	0.60417778153969	0.60184203373161	50.000000000000	0.00000000000000
1.6825000000000	0.61070482976542	0.59369902865301	50.000000000000	0.00000000000000
1.6880000000000	0.61700869984913	0.58551861715551	50.000000000000	0.00000000000000
1.6935000000000	0.62309341295671	0.57730376383760	50.000000000000	0.00000000000000
1.6990000000000	0.62896284778942	0.56905728608431	50.000000000000	0.00000000000000
1.7045000000000	0.63462074615202	0.56078185667464	50.000000000000	0.00000000000000
1.7100000000000	0.64007071720159	0.55248000640385	50.000000000000	0.00000000000000
1.7155000000000	0.64531624053681	0.54415412681126	50.000000000000	0.00000000000000
1.7210000000000	0.65036066827668	0.53580647308553	50.000000000000	0.00000000000000
