#Parameters = {Disk_Antenna_1_S11_target_top=-17; Disk_Antenna_1_center_frequency=2.45; Disk_Antenna_1_central_pipe_radius=2.5; Disk_Antenna_1_connector_inner_diameter=1.74; Disk_Antenna_1_connector_outer_diameter=4; Disk_Antenna_1_direction_disks_diameter_1=53.5; Disk_Antenna_1_direction_disks_diameter_2=39.5; Disk_Antenna_1_direction_disks_diameter_3=39.5; Disk_Antenna_1_direction_disks_diameter_4=39; Disk_Antenna_1_direction_disks_diameter_5=35; Disk_Antenna_1_disk_metallization_thickness=0.5; Disk_Antenna_1_frequency_range=0.15; Disk_Antenna_1_inter_direction_disks_distance_1=30; Disk_Antenna_1_inter_direction_disks_distance_2=30; Disk_Antenna_1_inter_direction_disks_distance_3=30; Disk_Antenna_1_inter_direction_disks_distance_4=30; Disk_Antenna_1_line_direction_disk_distance=11; Disk_Antenna_1_line_disk_diameter=68.3; Disk_Antenna_1_main_line_disks_distance=10; Disk_Antenna_1_main_reflector_diameter=90; Disk_Antenna_1_number_direction_disk=5; Disk_Antenna_1_nut_diameter=8; Disk_Antenna_1_nut_height=1; Disk_Antenna_1_nut_thickness=3; Disk_Antenna_1_optimisation_range=0.1; Disk_Antenna_1_port_connection_offset=24.3}
#"Frequency / GHz"	"S1,1 [Re]"	"S1,1 [Im]"	"Ref.Imp. [Re]"	"Ref.Imp. [Im]"
#-------------------------------------------------------------------------
0.50000000000000	-0.18989592350163	0.93797997738735	50.000000000000	0.00000000000000
0.50550000000000	-0.17682008792114	0.93996724021259	50.000000000000	0.00000000000000
0.51100000000000	-0.16371500538808	0.94176346476978	50.000000000000	0.00000000000000
0.51650000000000	-0.15058226052040	0.94336735501716	50.000000000000	0.00000000000000
0.52200000000000	-0.13742345093396	0.94477754790804	50.000000000000	0.00000000000000
0.52750000000000	-0.12424019155576	0.94599260975641	50.000000000000	0.00000000000000
0.53300000000000	-0.11103411930420	0.94701103257530	50.000000000000	0.00000000000000
0.53850000000000	-0.097806898164323	0.94783123039872	50.000000000000	0.00000000000000
0.54400000000000	-0.084560224688156	0.94845153560047	50.000000000000	0.00000000000000
0.54950000000000	-0.071295833952651	0.94887019522564	50.000000000000	0.00000000000000
0.55500000000000	-0.058015506009821	0.94908536735381	50.000000000000	0.00000000000000
0.56050000000000	-0.044721072866082	0.94909511751645	50.000000000000	0.00000000000000
0.56600000000000	-0.031414426030249	0.94889741519537	50.000000000000	0.00000000000000
0.57150000000000	-0.018097524672034	0.94849013043337	50.000000000000	0.00000000000000
0.57700000000000	-0.0047724044351985	0.94787103059398	50.000000000000	0.00000000000000
0.58250000000000	0.0085588130480635	0.94703777731312	50.000000000000	0.00000000000000
0.58800000000000	0.021893909892835	0.94598792369243	50.000000000000	0.00000000000000
0.59350000000000	0.035230560896633	0.94471891179205	50.000000000000	0.00000000000000
0.59900000000000	0.048566321621679	0.94322807048945	50.000000000000	0.00000000000000
0.60450000000000	0.061898615570860	0.94151261378109	50.000000000000	0.00000000000000
0.61000000000000	0.075224720403155	0.93956963961502	50.000000000000	0.00000000000000
0.61550000000000	0.088541753134564	0.93739612935517	50.000000000000	0.00000000000000
0.62100000000000	0.10184665427166	0.93498894799266	50.000000000000	0.00000000000000
0.62650000000000	0.11513617082719	0.93234484523496	50.000000000000	0.00000000000000
0.63200000000000	0.12840683817100	0.92946045762180	50.000000000000	0.00000000000000
0.63750000000000	0.14165496067557	0.92633231183598	50.000000000000	0.00000000000000
0.64300000000000	0.15487659112326	0.92295682939883	50.000000000000	0.00000000000000
0.64850000000000	0.16806750885370	0.91933033296350	50.000000000000	0.00000000000000
0.65400000000000	0.18122319664401	0.91544905444478	50.000000000000	0.00000000000000
0.65950000000000	0.19433881633335	0.91130914525153	50.000000000000	0.00000000000000
0.66500000000000	0.20740918322659	0.90690668891697	50.000000000000	0.00000000000000
0.67050000000000	0.22042873934164	0.90223771645304	50.000000000000	0.00000000000000
0.67600000000000	0.23339152560089	0.89729822478661	50.000000000000	0.00000000000000
0.68150000000000	0.24629115311183	0.89208419866824	50.000000000000	0.00000000000000
0.68700000000000	0.25912077373506	0.88659163647587	50.000000000000	0.00000000000000
0.69250000000000	0.27187305020234	0.88081658036716	50.000000000000	0.00000000000000
0.69800000000000	0.28454012612308	0.87475515126162	50.000000000000	0.00000000000000
0.70350000000000	0.29711359630759	0.86840358915713	50.000000000000	0.00000000000000
0.70900000000000	0.30958447793936	0.86175829930133	50.000000000000	0.00000000000000
0.71450000000000	0.32194318324965	0.85481590474375	50.000000000000	0.00000000000000
0.72000000000000	0.33417949448528	0.84757330578647	50.000000000000	0.00000000000000
0.72550000000000	0.34628254211639	0.84002774682391	50.000000000000	0.00000000000000
0.73100000000000	0.35824078740491	0.83217689101140	50.000000000000	0.00000000000000
0.73650000000000	0.37004201064534	0.82401890312103	50.000000000000	0.00000000000000
0.74200000000000	0.38167330659633	0.81555254082417	50.000000000000	0.00000000000000
0.74750000000000	0.39312108883967	0.80677725447540	50.000000000000	0.00000000000000
0.75300000000000	0.40437110502776	0.79769329525317	50.000000000000	0.00000000000000
0.75850000000000	0.41540846520379	0.78830183122868	50.000000000000	0.00000000000000
0.76400000000000	0.42621768558807	0.77860507057750	50.000000000000	0.00000000000000
0.76950000000000	0.43678275040596	0.76860639070824	50.000000000000	0.00000000000000
0.77500000000000	0.44708719446718	0.75831047155313	50.000000000000	0.00000000000000
0.78050000000000	0.45711420926979	0.74772343064092	50.000000000000	0.00000000000000
0.78600000000000	0.46684677536599	0.73685295685320	50.000000000000	0.00000000000000
0.79150000000000	0.47626782355790	0.72570843895663	50.000000000000	0.00000000000000
0.79700000000000	0.48536042715185	0.71430108411983	50.000000000000	0.00000000000000
0.80250000000000	0.49410802695030	0.70264402068953	50.000000000000	0.00000000000000
0.80800000000000	0.50249468986072	0.69075237855439	50.000000000000	0.00000000000000
0.81350000000000	0.51050540091383	0.67864333951953	50.000000000000	0.00000000000000
0.81900000000000	0.51812638708078	0.66633614932126	50.000000000000	0.00000000000000
0.82450000000000	0.52534546954566	0.65385208231718	50.000000000000	0.00000000000000
0.83000000000000	0.53215243903097	0.64121434959512	50.000000000000	0.00000000000000
0.83550000000000	0.53853944642616	0.62844794137122	50.000000000000	0.00000000000000
0.84100000000000	0.54450139840159	0.61557939521343	50.000000000000	0.00000000000000
0.84650000000000	0.55003634501804	0.60263648294601	50.000000000000	0.00000000000000
0.85200000000000	0.55514584372330	0.58964781116022	50.000000000000	0.00000000000000
0.85750000000000	0.55983528176745	0.57664233313341	50.000000000000	0.00000000000000
0.86300000000000	0.56411413721078	0.56364877364760	50.000000000000	0.00000000000000
0.86850000000000	0.56799615760755	0.55069497262749	50.000000000000	0.00000000000000
0.87400000000000	0.57149943539346	0.53780715852833	50.000000000000	0.00000000000000
0.87950000000000	0.57464636021921	0.52500916773922	50.000000000000	0.00000000000000
0.88500000000000	0.57746343112863	0.51232163157922	50.000000000000	0.00000000000000
0.89050000000000	0.57998091564389	0.49976115732793	50.000000000000	0.00000000000000
0.89600000000000	0.58223234842273	0.48733953368136	50.000000000000	0.00000000000000
0.90150000000000	0.58425386896795	0.47506299359628	50.000000000000	0.00000000000000
0.90700000000000	0.58608340550853	0.46293156828142	50.000000000000	0.00000000000000
0.91250000000000	0.58775972010509	0.45093856483318	50.000000000000	0.00000000000000
0.91800000000000	0.58932133762974	0.43907019659570	50.000000000000	0.00000000000000
0.92350000000000	0.59080538786686	0.42730538986172	50.000000000000	0.00000000000000
0.92900000000000	0.59224639495361	0.41561578335610	50.000000000000	0.00000000000000
0.93450000000000	0.59367505123091	0.40396592860077	50.000000000000	0.00000000000000
0.94000000000000	0.59511701300085	0.39231369044110	50.000000000000	0.00000000000000
0.94550000000000	0.59659175362675	0.38061083849334	50.000000000000	0.00000000000000
0.95100000000000	0.59811150506232	0.36880381281310	50.000000000000	0.00000000000000
0.95650000000000	0.59968031269628	0.35683464134638	50.000000000000	0.00000000000000
0.96200000000000	0.60129322097282	0.34464198319310	50.000000000000	0.00000000000000
0.96750000000000	0.60293559933999	0.33216227064866	50.000000000000	0.00000000000000
0.97300000000000	0.60458261046186	0.31933092440703	50.000000000000	0.00000000000000
0.97850000000000	0.60619881603283	0.30608361999641	50.000000000000	0.00000000000000
0.98400000000000	0.60773791057039	0.29235758907202	50.000000000000	0.00000000000000
0.98950000000000	0.60914257070095	0.27809294606988	50.000000000000	0.00000000000000
0.99500000000000	0.61034440698836	0.26323403831634	50.000000000000	0.00000000000000
1.0005000000000	0.61126400742766	0.24773082535051	50.000000000000	0.00000000000000
1.0060000000000	0.61181106634249	0.23154030032511	50.000000000000	0.00000000000000
1.0115000000000	0.61188459948904	0.21462797230748	50.000000000000	0.00000000000000
1.0170000000000	0.61137325551506	0.19696943253629	50.000000000000	0.00000000000000
1.0225000000000	0.61015574532918	0.17855202963264	50.000000000000	0.00000000000000
1.0280000000000	0.60810142412580	0.15937667781774	50.000000000000	0.00000000000000
1.0335000000000	0.60507107542242	0.13945981768747	50.000000000000	0.00000000000000
1.0390000000000	0.60091796199149	0.11883554027200	50.000000000000	0.00000000000000
1.0445000000000	0.59548922426652	0.097557871095198	50.000000000000	0.00000000000000
1.0500000000000	0.58862772156926	0.075703190794454	50.000000000000	0.00000000000000
1.0555000000000	0.58017442373861	0.053372741629414	50.000000000000	0.00000000000000
1.0610000000000	0.56997146818441	0.030695134138685	50.000000000000	0.00000000000000
1.0665000000000	0.55786599700557	0.0078287249977037	50.000000000000	0.00000000000000
1.0720000000000	0.54371487674127	-0.015036313653440	50.000000000000	0.00000000000000
1.0775000000000	0.52739037498419	-0.037676469559523	50.000000000000	0.00000000000000
1.0830000000000	0.50878681852355	-0.059834204615297	50.000000000000	0.00000000000000
1.0885000000000	0.48782818229726	-0.081218455456348	50.000000000000	0.00000000000000
1.0940000000000	0.46447645411759	-0.10150670634891	50.000000000000	0.00000000000000
1.0995000000000	0.43874048696050	-0.12034903149728	50.000000000000	0.00000000000000
1.1050000000000	0.41068489382306	-0.13737447245247	50.000000000000	0.00000000000000
1.1105000000000	0.38043837224977	-0.15220002669704	50.000000000000	0.00000000000000
1.1160000000000	0.34820068780232	-0.16444236301084	50.000000000000	0.00000000000000
1.1215000000000	0.31424742786128	-0.17373214277620	50.000000000000	0.00000000000000
1.1270000000000	0.27893159517268	-0.17973052176693	50.000000000000	0.00000000000000
1.1325000000000	0.24268118075197	-0.18214705954835	50.000000000000	0.00000000000000
1.1380000000000	0.20599206565526	-0.18075791819603	50.000000000000	0.00000000000000
1.1435000000000	0.16941595866878	-0.17542294976246	50.000000000000	0.00000000000000
1.1490000000000	0.13354356081684	-0.16610012079683	50.000000000000	0.00000000000000
1.1545000000000	0.098983702585499	-0.15285576174069	50.000000000000	0.00000000000000
1.1600000000000	0.066339741242480	-0.13586939202557	50.000000000000	0.00000000000000
1.1655000000000	0.036184934165115	-0.11543234909915	50.000000000000	0.00000000000000
1.1710000000000	0.0090387283105022	-0.091940084259840	50.000000000000	0.00000000000000
1.1765000000000	-0.014654132640050	-0.065878682212840	50.000000000000	0.00000000000000
1.1820000000000	-0.034540090736811	-0.037806796670537	50.000000000000	0.00000000000000
1.1875000000000	-0.050367783621467	-0.0083346612787182	50.000000000000	0.00000000000000
1.1930000000000	-0.061993178842826	0.021897941058078	50.000000000000	0.00000000000000
1.1985000000000	-0.069379103983752	0.052242909786515	50.000000000000	0.00000000000000
1.2040000000000	-0.072590027198985	0.082062697329115	50.000000000000	0.00000000000000
1.2095000000000	-0.071783359692721	0.11074570244267	50.000000000000	0.00000000000000
1.2150000000000	-0.067198769763360	0.13771759554538	50.000000000000	0.00000000000000
1.2205000000000	-0.059147026300684	0.16244850890430	50.000000000000	0.00000000000000
1.2260000000000	-0.047999767019314	0.18445648706911	50.000000000000	0.00000000000000
1.2315000000000	-0.034181365687990	0.20330796561252	50.000000000000	0.00000000000000
1.2370000000000	-0.018163802617170	0.21861633060654	50.000000000000	0.00000000000000
1.2425000000000	-0.00046515703447779	0.23003983233568	50.000000000000	0.00000000000000
1.2480000000000	0.018347953077983	0.23728032297295	50.000000000000	0.00000000000000
1.2535000000000	0.037653981385122	0.24008449947728	50.000000000000	0.00000000000000
1.2590000000000	0.056766523113593	0.23824958774225	50.000000000000	0.00000000000000
1.2645000000000	0.074921849947569	0.23163569865933	50.000000000000	0.00000000000000
1.2700000000000	0.091265829165346	0.22018735720114	50.000000000000	0.00000000000000
1.2755000000000	0.10484353114922	0.20396678205323	50.000000000000	0.00000000000000
1.2810000000000	0.11459680758190	0.18320103881551	50.000000000000	0.00000000000000
1.2865000000000	0.11937766317500	0.15834364004324	50.000000000000	0.00000000000000
1.2920000000000	0.11798793037400	0.13014772796444	50.000000000000	0.00000000000000
1.2975000000000	0.10925743850966	0.099741819754776	50.000000000000	0.00000000000000
1.3030000000000	0.092171320100360	0.068689938706352	50.000000000000	0.00000000000000
1.3085000000000	0.066049093550867	0.039007216367110	50.000000000000	0.00000000000000
1.3140000000000	0.030760749580032	0.013094322575856	50.000000000000	0.00000000000000
1.3195000000000	-0.013061265513876	-0.0064423449521093	50.000000000000	0.00000000000000
1.3250000000000	-0.063882271118805	-0.017093759965074	50.000000000000	0.00000000000000
1.3305000000000	-0.11927595757463	-0.016837221098006	50.000000000000	0.00000000000000
1.3360000000000	-0.17613729195634	-0.0045195501345541	50.000000000000	0.00000000000000
1.3415000000000	-0.23108328313636	0.019887055394959	50.000000000000	0.00000000000000
1.3470000000000	-0.28094708303218	0.055253798512194	50.000000000000	0.00000000000000
1.3525000000000	-0.32322407690905	0.099507924939776	50.000000000000	0.00000000000000
1.3580000000000	-0.35634751799016	0.15001698613079	50.000000000000	0.00000000000000
1.3635000000000	-0.37974468277431	0.20401970976038	50.000000000000	0.00000000000000
1.3690000000000	-0.39370664149010	0.25898767986212	50.000000000000	0.00000000000000
1.3745000000000	-0.39915304190197	0.31285479921080	50.000000000000	0.00000000000000
1.3800000000000	-0.39737613149060	0.36411041853739	50.000000000000	0.00000000000000
1.3855000000000	-0.38982135964708	0.41179013587565	50.000000000000	0.00000000000000
1.3910000000000	-0.37792810520522	0.45540991321878	50.000000000000	0.00000000000000
1.3965000000000	-0.36302795289632	0.49488254632836	50.000000000000	0.00000000000000
1.4020000000000	-0.34628323449720	0.53044122543755	50.000000000000	0.00000000000000
1.4075000000000	-0.32864294138733	0.56257928720562	50.000000000000	0.00000000000000
1.4130000000000	-0.31079402138590	0.59199965038520	50.000000000000	0.00000000000000
1.4185000000000	-0.29309469398914	0.61955126696630	50.000000000000	0.00000000000000
1.4240000000000	-0.27549864113549	0.64611685791398	50.000000000000	0.00000000000000
1.4295000000000	-0.25751833309731	0.67242212062701	50.000000000000	0.00000000000000
1.4350000000000	-0.23831298782444	0.69878739217345	50.000000000000	0.00000000000000
1.4405000000000	-0.21696311775185	0.72493688865351	50.000000000000	0.00000000000000
1.4460000000000	-0.19286256819883	0.75003207680827	50.000000000000	0.00000000000000
1.4515000000000	-0.16600823015482	0.77298410910716	50.000000000000	0.00000000000000
1.4570000000000	-0.13699481134481	0.79287649098905	50.000000000000	0.00000000000000
1.4625000000000	-0.10674722573288	0.80924113280722	50.000000000000	0.00000000000000
1.4680000000000	-0.076198596340744	0.82208041553145	50.000000000000	0.00000000000000
1.4735000000000	-0.046084499995761	0.83172004710806	50.000000000000	0.00000000000000
1.4790000000000	-0.016884491719852	0.83863058166269	50.000000000000	0.00000000000000
1.4845000000000	0.011144139159758	0.84329757058282	50.000000000000	0.00000000000000
1.4900000000000	0.037901825239796	0.84615386405805	50.000000000000	0.00000000000000
1.4955000000000	0.063386514979416	0.84755672751073	50.000000000000	0.00000000000000
1.5010000000000	0.087649479340818	0.84778901149976	50.000000000000	0.00000000000000
1.5065000000000	0.11076687954804	0.84707003937634	50.000000000000	0.00000000000000
1.5120000000000	0.13282308211356	0.84556857152369	50.000000000000	0.00000000000000
1.5175000000000	0.15390164321910	0.84341456564856	50.000000000000	0.00000000000000
1.5230000000000	0.17408091090330	0.84070873145195	50.000000000000	0.00000000000000
1.5285000000000	0.19343224460364	0.83752988020920	50.000000000000	0.00000000000000
1.5340000000000	0.21201963498841	0.83394042005076	50.000000000000	0.00000000000000
1.5395000000000	0.22990001977980	0.82999040855965	50.000000000000	0.00000000000000
1.5450000000000	0.24712390428170	0.82572052673224	50.000000000000	0.00000000000000
1.5505000000000	0.26373607822707	0.82116426301547	50.000000000000	0.00000000000000
1.5560000000000	0.27977632406373	0.81634952449863	50.000000000000	0.00000000000000
1.5615000000000	0.29528006871373	0.81129983395737	50.000000000000	0.00000000000000
1.5670000000000	0.31027896113864	0.80603522709406	50.000000000000	0.00000000000000
1.5725000000000	0.32480137345308	0.80057293182626	50.000000000000	0.00000000000000
1.5780000000000	0.33887283058783	0.79492788813240	50.000000000000	0.00000000000000
1.5835000000000	0.35251637641389	0.78911315035766	50.000000000000	0.00000000000000
1.5890000000000	0.36575288491628	0.78314020211657	50.000000000000	0.00000000000000
1.5945000000000	0.37860132460730	0.77701920559179	50.000000000000	0.00000000000000
1.6000000000000	0.39107898351431	0.77075920110765	50.000000000000	0.00000000000000
1.6055000000000	0.40320166108758	0.76436826863355	50.000000000000	0.00000000000000
1.6110000000000	0.41498383240617	0.75785365984370	50.000000000000	0.00000000000000
1.6165000000000	0.42643878918558	0.75122190717357	50.000000000000	0.00000000000000
1.6220000000000	0.43757876133150	0.74447891472468	50.000000000000	0.00000000000000
1.6275000000000	0.44841502214156	0.73763003470612	50.000000000000	0.00000000000000
1.6330000000000	0.45895797972110	0.73068013224262	50.000000000000	0.00000000000000
1.6385000000000	0.46921725673603	0.72363364074042	50.000000000000	0.00000000000000
1.6440000000000	0.47920176026179	0.71649460952321	50.000000000000	0.00000000000000
1.6495000000000	0.48891974318877	0.70926674508837	50.000000000000	0.00000000000000
1.6550000000000	0.49837885840012	0.70195344705751	50.000000000000	0.00000000000000
1.6605000000000	0.50758620673731	0.69455783968326	50.000000000000	0.00000000000000
1.6660000000000	0.51654837960453	0.68708279960936	50.000000000000	0.00000000000000
1.6715000000000	0.52527149692744	0.67953098045312	50.000000000000	0.00000000000000
1.6770000000000	0.53376124107092	0.67190483467768	50.000000000000	0.00000000000000
1.6825000000000	0.54202288722748	0.66420663314125	50.000000000000	0.00000000000000
1.6880000000000	0.55006133071246	0.65643848264657	50.000000000000	0.00000000000000
1.6935000000000	0.55788111153783	0.64860234176168	50.000000000000	0.00000000000000
1.6990000000000	0.56548643658384	0.64070003514155	50.000000000000	0.00000000000000
1.7045000000000	0.57288119964306	0.63273326654554	50.000000000000	0.00000000000000
1.7100000000000	0.58006899957396	0.62470363071780	50.000000000000	0.00000000000000
1.7155000000000	0.58705315676987	0.61661262427425	50.000000000000	0.00000000000000
